
T1BF8 000:037 SEGGER J-Link V6.00e Log File (0002ms, 0025ms total)
T1BF8 000:037 DLL Compiled: Aug  4 2016 09:37:38 (0002ms, 0025ms total)
T1BF8 000:037 Logging started @ 2016-09-30 19:46 (0002ms, 0025ms total)
T1BF8 000:039 JLINK_SetWarnOutHandler(...) (0000ms, 0025ms total)
T1BF8 000:039 JLINK_OpenEx(...)
Firmware: J-Link OB-STM32F072-CortexM compiled Mar  8 2020 11:15:54
Hardware: V1.00
Feature(s): GDB, RDI, FlashBP, FlashDL, JFlash, RDDI  returns O.K. (0018ms, 0043ms total)
T1BF8 000:057 JLINK_SetErrorOutHandler(...) (0000ms, 0043ms total)
T1BF8 000:057 JLINK_ExecCommand("ProjectFile = "C:\Users\pz_cloud\Desktop\onWorking\LuaPad\Template\MDK-ARM\JLinkSettings.ini"", ...).   returns 0x00 (0125ms, 0168ms total)
T1BF8 000:186 JLINK_ExecCommand("Device = STM32F405RGTx", ...). Device "STM32F405RG" selected.  returns 0x00 (0005ms, 0173ms total)
T1BF8 000:191 JLINK_ExecCommand("DisableConnectionTimeout", ...).   returns 0x01 (0000ms, 0173ms total)
T1BF8 000:191 JLINK_GetHardwareVersion()  returns 0x2710 (0000ms, 0173ms total)
T1BF8 000:191 JLINK_GetDLLVersion()  returns 60005 (0000ms, 0173ms total)
T1BF8 000:191 JLINK_GetFirmwareString(...) (0000ms, 0173ms total)
T1BF8 000:200 JLINK_GetDLLVersion()  returns 60005 (0000ms, 0173ms total)
T1BF8 000:200 JLINK_GetCompileDateTime() (0000ms, 0173ms total)
T1BF8 000:204 JLINK_GetFirmwareString(...) (0000ms, 0173ms total)
T1BF8 000:207 JLINK_GetHardwareVersion()  returns 0x2710 (0000ms, 0173ms total)
T1BF8 000:217 JLINK_TIF_Select(JLINKARM_TIF_SWD)  returns 0x00 (0002ms, 0175ms total)
T1BF8 000:219 JLINK_SetSpeed(2000) (0001ms, 0176ms total)
T1BF8 000:220 JLINK_GetId() >0x108 TIF>Found SWD-DP with ID 0x2BA01477 >0x0D TIF> >0x28 TIF> >0x0D TIF> >0x28 TIF> >0x0D TIF> >0x28 TIF> >0x0D TIF> >0x28 TIF> >0x0D TIF> >0x21 TIF> >0x0D TIF> >0x28 TIF> >0x0D TIF> >0x28 TIF> >0x0D TIF> >0x28 TIF> >0x0D TIF> >0x21 TIF> >0x0D TIF> >0x21 TIF> >0x0D TIF> >0x28 TIF> >0x0D TIF> >0x21 TIF> >0x0D TIF> >0x21 TIF> >0x0D TIF> >0x28 TIF> >0x0D TIF> >0x28 TIF> >0x0D TIF> >0x28 TIF> >0x0D TIF> >0x21 TIF> >0x0D TIF> >0x21 TIF> >0x0D TIF> >0x28 TIF> >0x0D TIF>
 >0x28 TIF> >0x0D TIF> >0x28 TIF> >0x0D TIF> >0x21 TIF> >0x0D TIF> >0x21 TIF> >0x0D TIF> >0x28 TIF> >0x0D TIF> >0x21 TIF> >0x0D TIF> >0x21 TIF> >0x0D TIF> >0x28 TIF> >0x0D TIF> >0x21 TIF> >0x0D TIF> >0x21 TIF> >0x108 TIF>Found SWD-DP with ID 0x2BA01477 >0x0D TIF> >0x28 TIF> >0x0D TIF> >0x28 TIF> >0x0D TIF> >0x28 TIF> >0x0D TIF> >0x28 TIF> >0x0D TIF> >0x21 TIF> >0x0D TIF> >0x28 TIF> >0x0D TIF> >0x28 TIF> >0x0D TIF> >0x21 TIF> >0x0D TIF> >0x21 TIF> >0x0D TIF> >0x21 TIF>AP-IDR: 0x24770011, Type: AHB-AP
 >0x0D TIF> >0x28 TIF> >0x0D TIF> >0x28 TIF> >0x0D TIF> >0x28 TIF> >0x0D TIF> >0x21 TIF> >0x0D TIF> >0x21 TIF> >0x0D TIF> >0x28 TIF> >0x0D TIF> >0x21 TIF> >0x0D TIF> >0x21 TIF>Found Cortex-M4 r0p1, Little endian. -- CPU_ReadMem(4 bytes @ 0xE000EDF0) -- CPU_WriteMem(4 bytes @ 0xE000EDF0) -- CPU_ReadMem(4 bytes @ 0xE0002000)FPUnit: 6 code (BP) slots and 2 literal slots -- CPU_ReadMem(4 bytes @ 0xE000EDFC) -- CPU_WriteMem(4 bytes @ 0xE000EDFC) -- CPU_ReadMem(4 bytes @ 0xE0001000)
 -- CPU_WriteMem(4 bytes @ 0xE0001000) -- CPU_ReadMem(4 bytes @ 0xE000ED88) -- CPU_WriteMem(4 bytes @ 0xE000ED88) -- CPU_ReadMem(4 bytes @ 0xE000ED88) -- CPU_WriteMem(4 bytes @ 0xE000ED88)CoreSight components:ROMTbl 0 @ E00FF000 -- CPU_ReadMem(16 bytes @ 0xE00FF000) -- CPU_ReadMem(16 bytes @ 0xE000EFF0) -- CPU_ReadMem(16 bytes @ 0xE000EFE0)ROMTbl 0 [0]: FFF0F000, CID: B105E00D, PID: 000BB00C SCS -- CPU_ReadMem(16 bytes @ 0xE0001FF0) -- CPU_ReadMem(16 bytes @ 0xE0001FE0)
ROMTbl 0 [1]: FFF02000, CID: B105E00D, PID: 003BB002 DWT -- CPU_ReadMem(16 bytes @ 0xE0002FF0) -- CPU_ReadMem(16 bytes @ 0xE0002FE0)ROMTbl 0 [2]: FFF03000, CID: B105E00D, PID: 002BB003 FPB -- CPU_ReadMem(16 bytes @ 0xE0000FF0) -- CPU_ReadMem(16 bytes @ 0xE0000FE0)ROMTbl 0 [3]: FFF01000, CID: B105E00D, PID: 003BB001 ITM -- CPU_ReadMem(16 bytes @ 0xE00FF010) -- CPU_ReadMem(16 bytes @ 0xE0040FF0) -- CPU_ReadMem(16 bytes @ 0xE0040FE0)ROMTbl 0 [4]: FFF41000, CID: B105900D, PID: 000BB9A1 TPIU
 -- CPU_ReadMem(16 bytes @ 0xE0041FF0) -- CPU_ReadMem(16 bytes @ 0xE0041FE0)ROMTbl 0 [5]: FFF42000, CID: B105900D, PID: 000BB925 ETM >0x0D TIF> >0x21 TIF>  returns 0x2BA01477 (0108ms, 0284ms total)
T1BF8 000:328 JLINK_GetDLLVersion()  returns 60005 (0000ms, 0284ms total)
T1BF8 000:328 JLINK_CORE_GetFound()  returns 0xE0000FF (0000ms, 0284ms total)
T1BF8 000:328 JLINK_GetDebugInfo(0x100) -- Value=0xE00FF000  returns 0x00 (0000ms, 0284ms total)
T1BF8 000:330 JLINK_ReadMem (0xE00FF000, 0x0020 Bytes, ...) -- CPU is running -- CPU_ReadMem(32 bytes @ 0xE00FF000) - Data: 03 F0 F0 FF 03 20 F0 FF 03 30 F0 FF 03 10 F0 FF ...  returns 0x00 (0002ms, 0286ms total)
T1BF8 000:332 JLINK_ReadMem (0xE000EFF0, 0x0010 Bytes, ...) -- CPU is running -- CPU_ReadMem(16 bytes @ 0xE000EFF0) - Data: 0D 00 00 00 E0 00 00 00 05 00 00 00 B1 00 00 00  returns 0x00 (0001ms, 0287ms total)
T1BF8 000:333 JLINK_ReadMem (0xE000EFD0, 0x0020 Bytes, ...) -- CPU is running -- CPU_ReadMem(32 bytes @ 0xE000EFD0) - Data: 04 00 00 00 00 00 00 00 00 00 00 00 00 00 00 00 ...  returns 0x00 (0001ms, 0288ms total)
T1BF8 000:334 JLINK_ReadMem (0xE0001FF0, 0x0010 Bytes, ...) -- CPU is running -- CPU_ReadMem(16 bytes @ 0xE0001FF0) - Data: 0D 00 00 00 E0 00 00 00 05 00 00 00 B1 00 00 00  returns 0x00 (0001ms, 0289ms total)
T1BF8 000:335 JLINK_ReadMem (0xE0001FD0, 0x0020 Bytes, ...) -- CPU is running -- CPU_ReadMem(32 bytes @ 0xE0001FD0) - Data: 04 00 00 00 00 00 00 00 00 00 00 00 00 00 00 00 ...  returns 0x00 (0001ms, 0290ms total)
T1BF8 000:336 JLINK_ReadMem (0xE0002FF0, 0x0010 Bytes, ...) -- CPU is running -- CPU_ReadMem(16 bytes @ 0xE0002FF0) - Data: 0D 00 00 00 E0 00 00 00 05 00 00 00 B1 00 00 00  returns 0x00 (0001ms, 0291ms total)
T1BF8 000:337 JLINK_ReadMem (0xE0002FD0, 0x0020 Bytes, ...) -- CPU is running -- CPU_ReadMem(32 bytes @ 0xE0002FD0) - Data: 04 00 00 00 00 00 00 00 00 00 00 00 00 00 00 00 ...  returns 0x00 (0001ms, 0292ms total)
T1BF8 000:338 JLINK_ReadMem (0xE0000FF0, 0x0010 Bytes, ...) -- CPU is running -- CPU_ReadMem(16 bytes @ 0xE0000FF0) - Data: 0D 00 00 00 E0 00 00 00 05 00 00 00 B1 00 00 00  returns 0x00 (0001ms, 0293ms total)
T1BF8 000:339 JLINK_ReadMem (0xE0000FD0, 0x0020 Bytes, ...) -- CPU is running -- CPU_ReadMem(32 bytes @ 0xE0000FD0) - Data: 04 00 00 00 00 00 00 00 00 00 00 00 00 00 00 00 ...  returns 0x00 (0001ms, 0294ms total)
T1BF8 000:340 JLINK_ReadMem (0xE0040FF0, 0x0010 Bytes, ...) -- CPU is running -- CPU_ReadMem(16 bytes @ 0xE0040FF0) - Data: 0D 00 00 00 90 00 00 00 05 00 00 00 B1 00 00 00  returns 0x00 (0001ms, 0295ms total)
T1BF8 000:341 JLINK_ReadMem (0xE0040FD0, 0x0020 Bytes, ...) -- CPU is running -- CPU_ReadMem(32 bytes @ 0xE0040FD0) - Data: 04 00 00 00 00 00 00 00 00 00 00 00 00 00 00 00 ...  returns 0x00 (0001ms, 0296ms total)
T1BF8 000:342 JLINK_ReadMem (0xE0041FF0, 0x0010 Bytes, ...) -- CPU is running -- CPU_ReadMem(16 bytes @ 0xE0041FF0) - Data: 0D 00 00 00 90 00 00 00 05 00 00 00 B1 00 00 00  returns 0x00 (0001ms, 0297ms total)
T1BF8 000:343 JLINK_ReadMem (0xE0041FD0, 0x0020 Bytes, ...) -- CPU is running -- CPU_ReadMem(32 bytes @ 0xE0041FD0) - Data: 04 00 00 00 00 00 00 00 00 00 00 00 00 00 00 00 ...  returns 0x00 (0001ms, 0298ms total)
T1BF8 000:344 JLINK_ReadMemU32(0xE000EF40, 0x0001 Items, ...) -- CPU is running -- CPU_ReadMem(4 bytes @ 0xE000EF40) - Data: 21 00 11 10  returns 0x01 (0001ms, 0299ms total)
T1BF8 000:345 JLINK_ReadMemU32(0xE000EF44, 0x0001 Items, ...) -- CPU is running -- CPU_ReadMem(4 bytes @ 0xE000EF44) - Data: 11 00 00 11  returns 0x01 (0001ms, 0300ms total)
T1BF8 000:346 JLINK_ReadMemU32(0xE000ED00, 0x0001 Items, ...) -- CPU is running -- CPU_ReadMem(4 bytes @ 0xE000ED00) - Data: 41 C2 0F 41  returns 0x01 (0001ms, 0301ms total)
T1BF8 000:347 JLINK_SetResetType(JLINKARM_RESET_TYPE_NORMAL)  returns JLINKARM_RESET_TYPE_NORMAL (0000ms, 0301ms total)
T1BF8 000:347 JLINK_Reset() -- CPU is running -- CPU_WriteMem(4 bytes @ 0xE000EDF0) -- CPU is running -- CPU_WriteMem(4 bytes @ 0xE000EDFC) >0x35 TIF> -- CPU is running -- CPU_WriteMem(4 bytes @ 0xE000ED0C) -- CPU is running -- CPU_ReadMem(4 bytes @ 0xE000EDF0) -- CPU is running -- CPU_ReadMem(4 bytes @ 0xE000EDF0) -- CPU is running -- CPU_WriteMem(4 bytes @ 0xE000EDF0) -- CPU is running -- CPU_WriteMem(4 bytes @ 0xE000EDFC) -- CPU is running -- CPU_ReadMem(4 bytes @ 0xE000EDF0)
 -- CPU_WriteMem(4 bytes @ 0xE0002000) -- CPU_ReadMem(4 bytes @ 0xE000EDFC) -- CPU_ReadMem(4 bytes @ 0xE0001000) (0025ms, 0326ms total)
T1BF8 000:372 JLINK_Halt()  returns 0x00 (0000ms, 0326ms total)
T1BF8 000:372 JLINK_IsHalted()  returns TRUE (0000ms, 0326ms total)
T1BF8 000:372 JLINK_ReadMemU32(0xE000EDF0, 0x0001 Items, ...) -- CPU_ReadMem(4 bytes @ 0xE000EDF0) - Data: 03 00 03 00  returns 0x01 (0001ms, 0327ms total)
T1BF8 000:373 JLINK_WriteU32(0xE000EDF0, 0xA05F0003) -- CPU_WriteMem(4 bytes @ 0xE000EDF0)  returns 0x00 (0001ms, 0328ms total)
T1BF8 000:374 JLINK_WriteU32(0xE000EDFC, 0x01000000) -- CPU_WriteMem(4 bytes @ 0xE000EDFC)  returns 0x00 (0001ms, 0329ms total)
T1BF8 000:383 JLINK_GetHWStatus(...)  returns 0x00 (0001ms, 0330ms total)
T1BF8 000:392 JLINK_GetNumBPUnits(Type = 0xFFFFFF00)  returns 0x06 (0000ms, 0330ms total)
T1BF8 000:392 JLINK_GetNumBPUnits(Type = 0xF0)  returns 0x2000 (0000ms, 0330ms total)
T1BF8 000:392 JLINK_GetNumWPUnits()  returns 0x04 (0000ms, 0330ms total)
T1BF8 000:398 JLINK_GetSpeed()  returns 0x7D0 (0000ms, 0330ms total)
T1BF8 000:401 JLINK_ReadMemU32(0xE000E004, 0x0001 Items, ...) -- CPU_ReadMem(4 bytes @ 0xE000E004) - Data: 02 00 00 00  returns 0x01 (0001ms, 0331ms total)
T1BF8 000:402 JLINK_ReadMemU32(0xE000E004, 0x0001 Items, ...) -- CPU_ReadMem(4 bytes @ 0xE000E004) - Data: 02 00 00 00  returns 0x01 (0001ms, 0332ms total)
T1BF8 000:403 JLINK_WriteMem(0xE0001000, 0x001C Bytes, ...) - Data: 01 00 00 00 00 00 00 00 00 00 00 00 00 00 00 00 ... -- CPU_WriteMem(28 bytes @ 0xE0001000)  returns 0x1C (0002ms, 0334ms total)
T1BF8 000:405 JLINK_ReadMem (0xE0001000, 0x001C Bytes, ...) -- CPU_ReadMem(28 bytes @ 0xE0001000) - Data: 01 00 00 40 00 00 00 00 00 00 00 00 00 00 00 00 ...  returns 0x00 (0001ms, 0335ms total)
T1BF8 000:406 JLINK_Halt()  returns 0x00 (0000ms, 0335ms total)
T1BF8 000:406 JLINK_IsHalted()  returns TRUE (0000ms, 0335ms total)
T1BF8 000:408 JLINK_WriteMem(0x20000000, 0x0180 Bytes, ...) - Data: 00 BE 0A E0 0D 78 2D 06 68 40 08 24 40 00 00 D3 ... -- CPU_WriteMem(384 bytes @ 0x20000000)  returns 0x180 (0006ms, 0341ms total)
T1BF8 000:414 JLINK_WriteReg(R0, 0x08000000)  returns 0x00 (0000ms, 0341ms total)
T1BF8 000:414 JLINK_WriteReg(R1, 0x0A037A00)  returns 0x00 (0000ms, 0341ms total)
T1BF8 000:414 JLINK_WriteReg(R2, 0x00000001)  returns 0x00 (0000ms, 0341ms total)
T1BF8 000:414 JLINK_WriteReg(R3, 0x00000000)  returns 0x00 (0000ms, 0341ms total)
T1BF8 000:414 JLINK_WriteReg(R4, 0x00000000)  returns 0x00 (0000ms, 0341ms total)
T1BF8 000:414 JLINK_WriteReg(R5, 0x00000000)  returns 0x00 (0000ms, 0341ms total)
T1BF8 000:414 JLINK_WriteReg(R6, 0x00000000)  returns 0x00 (0000ms, 0341ms total)
T1BF8 000:414 JLINK_WriteReg(R7, 0x00000000)  returns 0x00 (0000ms, 0341ms total)
T1BF8 000:414 JLINK_WriteReg(R8, 0x00000000)  returns 0x00 (0000ms, 0341ms total)
T1BF8 000:414 JLINK_WriteReg(R9, 0x2000017C)  returns 0x00 (0000ms, 0341ms total)
T1BF8 000:414 JLINK_WriteReg(R10, 0x00000000)  returns 0x00 (0000ms, 0341ms total)
T1BF8 000:414 JLINK_WriteReg(R11, 0x00000000)  returns 0x00 (0000ms, 0341ms total)
T1BF8 000:414 JLINK_WriteReg(R12, 0x00000000)  returns 0x00 (0000ms, 0341ms total)
T1BF8 000:414 JLINK_WriteReg(R13 (SP), 0x20001000)  returns 0x00 (0000ms, 0341ms total)
T1BF8 000:414 JLINK_WriteReg(R14, 0x20000001)  returns 0x00 (0000ms, 0341ms total)
T1BF8 000:414 JLINK_WriteReg(R15 (PC), 0x20000054)  returns 0x00 (0000ms, 0341ms total)
T1BF8 000:414 JLINK_WriteReg(XPSR, 0x01000000)  returns 0x00 (0000ms, 0341ms total)
T1BF8 000:414 JLINK_WriteReg(MSP, 0x20001000)  returns 0x00 (0000ms, 0341ms total)
T1BF8 000:414 JLINK_WriteReg(PSP, 0x20001000)  returns 0x00 (0000ms, 0341ms total)
T1BF8 000:414 JLINK_WriteReg(CFBP, 0x00000000)  returns 0x00 (0000ms, 0341ms total)
T1BF8 000:414 JLINK_SetBPEx(Addr = 0x20000000, Type = 0xFFFFFFF2) -- CPU_ReadMem(2 bytes @ 0x20000000)  returns 0x00000001 (0002ms, 0343ms total)
T1BF8 000:416 JLINK_Go() -- CPU_WriteMem(2 bytes @ 0x20000000) -- CPU_ReadMem(4 bytes @ 0xE0001000) -- CPU_WriteMem(4 bytes @ 0xE0002008) -- CPU_WriteMem(4 bytes @ 0xE000200C) -- CPU_WriteMem(4 bytes @ 0xE0002010) -- CPU_WriteMem(4 bytes @ 0xE0002014) -- CPU_WriteMem(4 bytes @ 0xE0002018) -- CPU_WriteMem(4 bytes @ 0xE000201C) -- CPU_WriteMem(4 bytes @ 0xE0001004) (0009ms, 0352ms total)
T1BF8 000:426 JLINK_IsHalted() -- CPU_ReadMem(2 bytes @ 0x20000000)  returns TRUE (0006ms, 0358ms total)
T1BF8 000:432 JLINK_ReadReg(R15 (PC))  returns 0x20000000 (0000ms, 0352ms total)
T1BF8 000:432 JLINK_ClrBPEx(BPHandle = 0x00000001)  returns 0x00 (0000ms, 0352ms total)
T1BF8 000:432 JLINK_ReadReg(R0)  returns 0x00000000 (0000ms, 0352ms total)
T1BF8 000:432 JLINK_WriteReg(R0, 0x08000000)  returns 0x00 (0000ms, 0352ms total)
T1BF8 000:432 JLINK_WriteReg(R1, 0x00004000)  returns 0x00 (0000ms, 0352ms total)
T1BF8 000:432 JLINK_WriteReg(R2, 0x000000FF)  returns 0x00 (0000ms, 0352ms total)
T1BF8 000:432 JLINK_WriteReg(R3, 0x00000000)  returns 0x00 (0000ms, 0352ms total)
T1BF8 000:432 JLINK_WriteReg(R4, 0x00000000)  returns 0x00 (0000ms, 0352ms total)
T1BF8 000:432 JLINK_WriteReg(R5, 0x00000000)  returns 0x00 (0000ms, 0352ms total)
T1BF8 000:432 JLINK_WriteReg(R6, 0x00000000)  returns 0x00 (0000ms, 0352ms total)
T1BF8 000:432 JLINK_WriteReg(R7, 0x00000000)  returns 0x00 (0000ms, 0352ms total)
T1BF8 000:432 JLINK_WriteReg(R8, 0x00000000)  returns 0x00 (0000ms, 0352ms total)
T1BF8 000:432 JLINK_WriteReg(R9, 0x2000017C)  returns 0x00 (0000ms, 0352ms total)
T1BF8 000:432 JLINK_WriteReg(R10, 0x00000000)  returns 0x00 (0000ms, 0352ms total)
T1BF8 000:432 JLINK_WriteReg(R11, 0x00000000)  returns 0x00 (0000ms, 0352ms total)
T1BF8 000:432 JLINK_WriteReg(R12, 0x00000000)  returns 0x00 (0000ms, 0352ms total)
T1BF8 000:432 JLINK_WriteReg(R13 (SP), 0x20001000)  returns 0x00 (0000ms, 0352ms total)
T1BF8 000:432 JLINK_WriteReg(R14, 0x20000001)  returns 0x00 (0000ms, 0352ms total)
T1BF8 000:432 JLINK_WriteReg(R15 (PC), 0x20000020)  returns 0x00 (0000ms, 0352ms total)
T1BF8 000:432 JLINK_WriteReg(XPSR, 0x01000000)  returns 0x00 (0000ms, 0352ms total)
T1BF8 000:432 JLINK_WriteReg(MSP, 0x20001000)  returns 0x00 (0000ms, 0352ms total)
T1BF8 000:432 JLINK_WriteReg(PSP, 0x20001000)  returns 0x00 (0000ms, 0352ms total)
T1BF8 000:432 JLINK_WriteReg(CFBP, 0x00000000)  returns 0x00 (0000ms, 0352ms total)
T1BF8 000:432 JLINK_SetBPEx(Addr = 0x20000000, Type = 0xFFFFFFF2)  returns 0x00000002 (0000ms, 0352ms total)
T1BF8 000:432 JLINK_Go() -- CPU_ReadMem(4 bytes @ 0xE0001000) (0004ms, 0356ms total)
T1BF8 000:436 JLINK_IsHalted() -- CPU_ReadMem(2 bytes @ 0x20000000)  returns TRUE (0006ms, 0362ms total)
T1BF8 000:442 JLINK_ReadReg(R15 (PC))  returns 0x20000000 (0000ms, 0356ms total)
T1BF8 000:442 JLINK_ClrBPEx(BPHandle = 0x00000002)  returns 0x00 (0000ms, 0356ms total)
T1BF8 000:442 JLINK_ReadReg(R0)  returns 0x00000001 (0000ms, 0356ms total)
T1BF8 000:442 JLINK_WriteReg(R0, 0x08000000)  returns 0x00 (0000ms, 0356ms total)
T1BF8 000:442 JLINK_WriteReg(R1, 0x00004000)  returns 0x00 (0000ms, 0356ms total)
T1BF8 000:442 JLINK_WriteReg(R2, 0x000000FF)  returns 0x00 (0000ms, 0356ms total)
T1BF8 000:442 JLINK_WriteReg(R3, 0x00000000)  returns 0x00 (0000ms, 0356ms total)
T1BF8 000:442 JLINK_WriteReg(R4, 0x00000000)  returns 0x00 (0000ms, 0356ms total)
T1BF8 000:442 JLINK_WriteReg(R5, 0x00000000)  returns 0x00 (0000ms, 0356ms total)
T1BF8 000:442 JLINK_WriteReg(R6, 0x00000000)  returns 0x00 (0000ms, 0356ms total)
T1BF8 000:442 JLINK_WriteReg(R7, 0x00000000)  returns 0x00 (0000ms, 0356ms total)
T1BF8 000:442 JLINK_WriteReg(R8, 0x00000000)  returns 0x00 (0000ms, 0356ms total)
T1BF8 000:442 JLINK_WriteReg(R9, 0x2000017C)  returns 0x00 (0000ms, 0356ms total)
T1BF8 000:442 JLINK_WriteReg(R10, 0x00000000)  returns 0x00 (0000ms, 0356ms total)
T1BF8 000:442 JLINK_WriteReg(R11, 0x00000000)  returns 0x00 (0000ms, 0356ms total)
T1BF8 000:442 JLINK_WriteReg(R12, 0x00000000)  returns 0x00 (0000ms, 0356ms total)
T1BF8 000:442 JLINK_WriteReg(R13 (SP), 0x20001000)  returns 0x00 (0000ms, 0356ms total)
T1BF8 000:442 JLINK_WriteReg(R14, 0x20000001)  returns 0x00 (0000ms, 0356ms total)
T1BF8 000:442 JLINK_WriteReg(R15 (PC), 0x200000BC)  returns 0x00 (0000ms, 0356ms total)
T1BF8 000:442 JLINK_WriteReg(XPSR, 0x01000000)  returns 0x00 (0000ms, 0356ms total)
T1BF8 000:442 JLINK_WriteReg(MSP, 0x20001000)  returns 0x00 (0000ms, 0356ms total)
T1BF8 000:442 JLINK_WriteReg(PSP, 0x20001000)  returns 0x00 (0000ms, 0356ms total)
T1BF8 000:442 JLINK_WriteReg(CFBP, 0x00000000)  returns 0x00 (0000ms, 0356ms total)
T1BF8 000:442 JLINK_SetBPEx(Addr = 0x20000000, Type = 0xFFFFFFF2)  returns 0x00000003 (0000ms, 0356ms total)
T1BF8 000:442 JLINK_Go() -- CPU_ReadMem(4 bytes @ 0xE0001000) (0004ms, 0360ms total)
T1BF8 000:446 JLINK_IsHalted()  returns FALSE (0001ms, 0361ms total)
T1BF8 000:482 JLINK_IsHalted()  returns FALSE (0000ms, 0360ms total)
T1BF8 000:485 JLINK_IsHalted()  returns FALSE (0001ms, 0361ms total)
T1BF8 000:487 JLINK_IsHalted()  returns FALSE (0001ms, 0361ms total)
T1BF8 000:489 JLINK_IsHalted()  returns FALSE (0001ms, 0361ms total)
T1BF8 000:492 JLINK_IsHalted()  returns FALSE (0001ms, 0361ms total)
T1BF8 000:494 JLINK_IsHalted()  returns FALSE (0000ms, 0360ms total)
T1BF8 000:496 JLINK_IsHalted()  returns FALSE (0001ms, 0361ms total)
T1BF8 000:498 JLINK_IsHalted()  returns FALSE (0001ms, 0361ms total)
T1BF8 000:500 JLINK_IsHalted()  returns FALSE (0001ms, 0361ms total)
T1BF8 000:502 JLINK_IsHalted()  returns FALSE (0001ms, 0361ms total)
T1BF8 000:504 JLINK_IsHalted()  returns FALSE (0001ms, 0361ms total)
T1BF8 000:507 JLINK_IsHalted()  returns FALSE (0000ms, 0360ms total)
T1BF8 000:509 JLINK_IsHalted()  returns FALSE (0000ms, 0360ms total)
T1BF8 000:511 JLINK_IsHalted()  returns FALSE (0001ms, 0361ms total)
T1BF8 000:514 JLINK_IsHalted()  returns FALSE (0001ms, 0361ms total)
T1BF8 000:518 JLINK_IsHalted()  returns FALSE (0001ms, 0361ms total)
T1BF8 000:521 JLINK_IsHalted()  returns FALSE (0001ms, 0361ms total)
T1BF8 000:524 JLINK_IsHalted()  returns FALSE (0001ms, 0361ms total)
T1BF8 000:527 JLINK_IsHalted()  returns FALSE (0001ms, 0361ms total)
T1BF8 000:530 JLINK_IsHalted()  returns FALSE (0001ms, 0362ms total)
T1BF8 000:533 JLINK_IsHalted()  returns FALSE (0001ms, 0362ms total)
T1BF8 000:536 JLINK_IsHalted()  returns FALSE (0001ms, 0362ms total)
T1BF8 000:539 JLINK_IsHalted()  returns FALSE (0001ms, 0362ms total)
T1BF8 000:542 JLINK_IsHalted()  returns FALSE (0001ms, 0362ms total)
T1BF8 000:545 JLINK_IsHalted()  returns FALSE (0000ms, 0361ms total)
T1BF8 000:554 JLINK_IsHalted()  returns FALSE (0001ms, 0362ms total)
T1BF8 000:557 JLINK_IsHalted()  returns FALSE (0001ms, 0362ms total)
T1BF8 000:560 JLINK_IsHalted()  returns FALSE (0001ms, 0362ms total)
T1BF8 000:569 JLINK_IsHalted()  returns FALSE (0001ms, 0362ms total)
T1BF8 000:572 JLINK_IsHalted()  returns FALSE (0001ms, 0362ms total)
T1BF8 000:575 JLINK_IsHalted()  returns FALSE (0001ms, 0362ms total)
T1BF8 000:581 JLINK_IsHalted()  returns FALSE (0001ms, 0362ms total)
T1BF8 000:584 JLINK_IsHalted()  returns FALSE (0001ms, 0362ms total)
T1BF8 000:587 JLINK_IsHalted()  returns FALSE (0001ms, 0362ms total)
T1BF8 000:590 JLINK_IsHalted()  returns FALSE (0001ms, 0362ms total)
T1BF8 000:593 JLINK_IsHalted()  returns FALSE (0001ms, 0362ms total)
T1BF8 000:599 JLINK_IsHalted()  returns FALSE (0001ms, 0362ms total)
T1BF8 000:602 JLINK_IsHalted()  returns FALSE (0001ms, 0362ms total)
T1BF8 000:605 JLINK_IsHalted()  returns FALSE (0001ms, 0362ms total)
T1BF8 000:608 JLINK_IsHalted()  returns FALSE (0001ms, 0362ms total)
T1BF8 000:611 JLINK_IsHalted()  returns FALSE (0000ms, 0361ms total)
T1BF8 000:614 JLINK_IsHalted()  returns FALSE (0001ms, 0362ms total)
T1BF8 000:617 JLINK_IsHalted()  returns FALSE (0000ms, 0361ms total)
T1BF8 000:619 JLINK_IsHalted()  returns FALSE (0001ms, 0362ms total)
T1BF8 000:622 JLINK_IsHalted()  returns FALSE (0001ms, 0362ms total)
T1BF8 000:625 JLINK_IsHalted()  returns FALSE (0002ms, 0363ms total)
T1BF8 000:629 JLINK_IsHalted()  returns FALSE (0001ms, 0362ms total)
T1BF8 000:632 JLINK_IsHalted()  returns FALSE (0001ms, 0362ms total)
T1BF8 000:635 JLINK_IsHalted()  returns FALSE (0000ms, 0361ms total)
T1BF8 000:645 JLINK_IsHalted()  returns FALSE (0001ms, 0362ms total)
T1BF8 000:648 JLINK_IsHalted()  returns FALSE (0001ms, 0362ms total)
T1BF8 000:651 JLINK_IsHalted()  returns FALSE (0001ms, 0362ms total)
T1BF8 000:665 JLINK_IsHalted()  returns FALSE (0001ms, 0362ms total)
T1BF8 000:668 JLINK_IsHalted()  returns FALSE (0001ms, 0362ms total)
T1BF8 000:671 JLINK_IsHalted()  returns FALSE (0001ms, 0362ms total)
T1BF8 000:674 JLINK_IsHalted()  returns FALSE (0001ms, 0362ms total)
T1BF8 000:677 JLINK_IsHalted()  returns FALSE (0002ms, 0363ms total)
T1BF8 000:681 JLINK_IsHalted()  returns FALSE (0001ms, 0362ms total)
T1BF8 000:684 JLINK_IsHalted()  returns FALSE (0001ms, 0362ms total)
T1BF8 000:694 JLINK_IsHalted()  returns FALSE (0001ms, 0362ms total)
T1BF8 000:697 JLINK_IsHalted()  returns FALSE (0002ms, 0363ms total)
T1BF8 000:701 JLINK_IsHalted()  returns FALSE (0001ms, 0362ms total)
T1BF8 000:711 JLINK_IsHalted()  returns FALSE (0001ms, 0362ms total)
T1BF8 000:714 JLINK_IsHalted()  returns FALSE (0001ms, 0362ms total)
T1BF8 000:717 JLINK_IsHalted()  returns FALSE (0001ms, 0362ms total)
T1BF8 000:720 JLINK_IsHalted()  returns FALSE (0001ms, 0362ms total)
T1BF8 000:723 JLINK_IsHalted()  returns FALSE (0001ms, 0362ms total)
T1BF8 000:726 JLINK_IsHalted()  returns FALSE (0001ms, 0362ms total)
T1BF8 000:729 JLINK_IsHalted()  returns FALSE (0001ms, 0362ms total)
T1BF8 000:732 JLINK_IsHalted()  returns FALSE (0001ms, 0362ms total)
T1BF8 000:735 JLINK_IsHalted()  returns FALSE (0001ms, 0362ms total)
T1BF8 000:737 JLINK_IsHalted()  returns FALSE (0001ms, 0362ms total)
T1BF8 000:740 JLINK_IsHalted()  returns FALSE (0001ms, 0362ms total)
T1BF8 000:743 JLINK_IsHalted()  returns FALSE (0001ms, 0362ms total)
T1BF8 000:746 JLINK_IsHalted()  returns FALSE (0001ms, 0362ms total)
T1BF8 000:756 JLINK_IsHalted()  returns FALSE (0001ms, 0362ms total)
T1BF8 000:759 JLINK_IsHalted()  returns FALSE (0002ms, 0363ms total)
T1BF8 000:763 JLINK_IsHalted()  returns FALSE (0001ms, 0362ms total)
T1BF8 000:776 JLINK_IsHalted()  returns FALSE (0001ms, 0362ms total)
T1BF8 000:779 JLINK_IsHalted()  returns FALSE (0001ms, 0362ms total)
T1BF8 000:782 JLINK_IsHalted()  returns FALSE (0001ms, 0362ms total)
T1BF8 000:785 JLINK_IsHalted()  returns FALSE (0001ms, 0362ms total)
T1BF8 000:788 JLINK_IsHalted()  returns FALSE (0001ms, 0362ms total)
T1BF8 000:791 JLINK_IsHalted()  returns FALSE (0001ms, 0362ms total)
T1BF8 000:794 JLINK_IsHalted()  returns FALSE (0001ms, 0362ms total)
T1BF8 000:802 JLINK_IsHalted() -- CPU_ReadMem(2 bytes @ 0x20000000)  returns TRUE (0007ms, 0368ms total)
T1BF8 000:809 JLINK_ReadReg(R15 (PC))  returns 0x20000000 (0000ms, 0361ms total)
T1BF8 000:809 JLINK_ClrBPEx(BPHandle = 0x00000003)  returns 0x00 (0000ms, 0361ms total)
T1BF8 000:809 JLINK_ReadReg(R0)  returns 0x00000000 (0000ms, 0361ms total)
T1BF8 000:812 JLINK_WriteReg(R0, 0x08004000)  returns 0x00 (0000ms, 0361ms total)
T1BF8 000:812 JLINK_WriteReg(R1, 0x00004000)  returns 0x00 (0000ms, 0361ms total)
T1BF8 000:812 JLINK_WriteReg(R2, 0x000000FF)  returns 0x00 (0000ms, 0361ms total)
T1BF8 000:812 JLINK_WriteReg(R3, 0x00000000)  returns 0x00 (0000ms, 0361ms total)
T1BF8 000:812 JLINK_WriteReg(R4, 0x00000000)  returns 0x00 (0000ms, 0361ms total)
T1BF8 000:812 JLINK_WriteReg(R5, 0x00000000)  returns 0x00 (0000ms, 0361ms total)
T1BF8 000:812 JLINK_WriteReg(R6, 0x00000000)  returns 0x00 (0000ms, 0361ms total)
T1BF8 000:812 JLINK_WriteReg(R7, 0x00000000)  returns 0x00 (0000ms, 0361ms total)
T1BF8 000:812 JLINK_WriteReg(R8, 0x00000000)  returns 0x00 (0000ms, 0361ms total)
T1BF8 000:812 JLINK_WriteReg(R9, 0x2000017C)  returns 0x00 (0001ms, 0362ms total)
T1BF8 000:813 JLINK_WriteReg(R10, 0x00000000)  returns 0x00 (0000ms, 0362ms total)
T1BF8 000:813 JLINK_WriteReg(R11, 0x00000000)  returns 0x00 (0000ms, 0362ms total)
T1BF8 000:813 JLINK_WriteReg(R12, 0x00000000)  returns 0x00 (0000ms, 0362ms total)
T1BF8 000:813 JLINK_WriteReg(R13 (SP), 0x20001000)  returns 0x00 (0000ms, 0362ms total)
T1BF8 000:813 JLINK_WriteReg(R14, 0x20000001)  returns 0x00 (0000ms, 0362ms total)
T1BF8 000:813 JLINK_WriteReg(R15 (PC), 0x20000020)  returns 0x00 (0000ms, 0362ms total)
T1BF8 000:813 JLINK_WriteReg(XPSR, 0x01000000)  returns 0x00 (0000ms, 0362ms total)
T1BF8 000:813 JLINK_WriteReg(MSP, 0x20001000)  returns 0x00 (0000ms, 0362ms total)
T1BF8 000:813 JLINK_WriteReg(PSP, 0x20001000)  returns 0x00 (0000ms, 0362ms total)
T1BF8 000:813 JLINK_WriteReg(CFBP, 0x00000000)  returns 0x00 (0001ms, 0363ms total)
T1BF8 000:814 JLINK_SetBPEx(Addr = 0x20000000, Type = 0xFFFFFFF2)  returns 0x00000004 (0000ms, 0363ms total)
T1BF8 000:814 JLINK_Go() -- CPU_ReadMem(4 bytes @ 0xE0001000) (0004ms, 0367ms total)
T1BF8 000:819 JLINK_IsHalted() -- CPU_ReadMem(2 bytes @ 0x20000000)  returns TRUE (0007ms, 0374ms total)
T1BF8 000:826 JLINK_ReadReg(R15 (PC))  returns 0x20000000 (0000ms, 0367ms total)
T1BF8 000:826 JLINK_ClrBPEx(BPHandle = 0x00000004)  returns 0x00 (0001ms, 0368ms total)
T1BF8 000:827 JLINK_ReadReg(R0)  returns 0x00000001 (0000ms, 0368ms total)
T1BF8 000:827 JLINK_WriteReg(R0, 0x08004000)  returns 0x00 (0000ms, 0368ms total)
T1BF8 000:827 JLINK_WriteReg(R1, 0x00004000)  returns 0x00 (0000ms, 0368ms total)
T1BF8 000:827 JLINK_WriteReg(R2, 0x000000FF)  returns 0x00 (0000ms, 0368ms total)
T1BF8 000:827 JLINK_WriteReg(R3, 0x00000000)  returns 0x00 (0000ms, 0368ms total)
T1BF8 000:827 JLINK_WriteReg(R4, 0x00000000)  returns 0x00 (0000ms, 0368ms total)
T1BF8 000:827 JLINK_WriteReg(R5, 0x00000000)  returns 0x00 (0000ms, 0368ms total)
T1BF8 000:827 JLINK_WriteReg(R6, 0x00000000)  returns 0x00 (0000ms, 0368ms total)
T1BF8 000:827 JLINK_WriteReg(R7, 0x00000000)  returns 0x00 (0000ms, 0368ms total)
T1BF8 000:827 JLINK_WriteReg(R8, 0x00000000)  returns 0x00 (0000ms, 0368ms total)
T1BF8 000:827 JLINK_WriteReg(R9, 0x2000017C)  returns 0x00 (0000ms, 0368ms total)
T1BF8 000:827 JLINK_WriteReg(R10, 0x00000000)  returns 0x00 (0000ms, 0368ms total)
T1BF8 000:827 JLINK_WriteReg(R11, 0x00000000)  returns 0x00 (0000ms, 0368ms total)
T1BF8 000:827 JLINK_WriteReg(R12, 0x00000000)  returns 0x00 (0000ms, 0368ms total)
T1BF8 000:827 JLINK_WriteReg(R13 (SP), 0x20001000)  returns 0x00 (0000ms, 0368ms total)
T1BF8 000:827 JLINK_WriteReg(R14, 0x20000001)  returns 0x00 (0000ms, 0368ms total)
T1BF8 000:827 JLINK_WriteReg(R15 (PC), 0x200000BC)  returns 0x00 (0000ms, 0368ms total)
T1BF8 000:827 JLINK_WriteReg(XPSR, 0x01000000)  returns 0x00 (0000ms, 0368ms total)
T1BF8 000:827 JLINK_WriteReg(MSP, 0x20001000)  returns 0x00 (0000ms, 0368ms total)
T1BF8 000:827 JLINK_WriteReg(PSP, 0x20001000)  returns 0x00 (0000ms, 0368ms total)
T1BF8 000:827 JLINK_WriteReg(CFBP, 0x00000000)  returns 0x00 (0000ms, 0368ms total)
T1BF8 000:827 JLINK_SetBPEx(Addr = 0x20000000, Type = 0xFFFFFFF2)  returns 0x00000005 (0001ms, 0369ms total)
T1BF8 000:828 JLINK_Go() -- CPU_ReadMem(4 bytes @ 0xE0001000) (0003ms, 0372ms total)
T1BF8 000:831 JLINK_IsHalted()  returns FALSE (0002ms, 0374ms total)
T1BF8 000:846 JLINK_IsHalted()  returns FALSE (0001ms, 0373ms total)
T1BF8 000:849 JLINK_IsHalted()  returns FALSE (0001ms, 0373ms total)
T1BF8 000:852 JLINK_IsHalted()  returns FALSE (0001ms, 0373ms total)
T1BF8 000:855 JLINK_IsHalted()  returns FALSE (0001ms, 0373ms total)
T1BF8 000:858 JLINK_IsHalted()  returns FALSE (0001ms, 0373ms total)
T1BF8 000:861 JLINK_IsHalted()  returns FALSE (0000ms, 0372ms total)
T1BF8 000:863 JLINK_IsHalted()  returns FALSE (0002ms, 0374ms total)
T1BF8 000:867 JLINK_IsHalted()  returns FALSE (0001ms, 0373ms total)
T1BF8 000:870 JLINK_IsHalted()  returns FALSE (0001ms, 0373ms total)
T1BF8 000:879 JLINK_IsHalted()  returns FALSE (0001ms, 0373ms total)
T1BF8 000:882 JLINK_IsHalted()  returns FALSE (0001ms, 0373ms total)
T1BF8 000:885 JLINK_IsHalted()  returns FALSE (0001ms, 0373ms total)
T1BF8 000:888 JLINK_IsHalted()  returns FALSE (0001ms, 0374ms total)
T1BF8 000:894 JLINK_IsHalted()  returns FALSE (0002ms, 0375ms total)
T1BF8 000:898 JLINK_IsHalted()  returns FALSE (0001ms, 0374ms total)
T1BF8 000:901 JLINK_IsHalted()  returns FALSE (0001ms, 0374ms total)
T1BF8 000:904 JLINK_IsHalted()  returns FALSE (0001ms, 0374ms total)
T1BF8 000:907 JLINK_IsHalted()  returns FALSE (0001ms, 0374ms total)
T1BF8 000:910 JLINK_IsHalted()  returns FALSE (0001ms, 0374ms total)
T1BF8 000:913 JLINK_IsHalted()  returns FALSE (0001ms, 0374ms total)
T1BF8 000:916 JLINK_IsHalted()  returns FALSE (0001ms, 0374ms total)
T1BF8 000:926 JLINK_IsHalted()  returns FALSE (0001ms, 0374ms total)
T1BF8 000:929 JLINK_IsHalted()  returns FALSE (0001ms, 0374ms total)
T1BF8 000:932 JLINK_IsHalted()  returns FALSE (0001ms, 0374ms total)
T1BF8 000:941 JLINK_IsHalted()  returns FALSE (0001ms, 0374ms total)
T1BF8 000:944 JLINK_IsHalted()  returns FALSE (0001ms, 0374ms total)
T1BF8 000:947 JLINK_IsHalted()  returns FALSE (0001ms, 0374ms total)
T1BF8 000:950 JLINK_IsHalted()  returns FALSE (0001ms, 0374ms total)
T1BF8 000:956 JLINK_IsHalted()  returns FALSE (0001ms, 0374ms total)
T1BF8 000:960 JLINK_IsHalted()  returns FALSE (0001ms, 0374ms total)
T1BF8 000:963 JLINK_IsHalted()  returns FALSE (0001ms, 0374ms total)
T1BF8 000:966 JLINK_IsHalted()  returns FALSE (0001ms, 0374ms total)
T1BF8 000:969 JLINK_IsHalted()  returns FALSE (0001ms, 0374ms total)
T1BF8 000:972 JLINK_IsHalted()  returns FALSE (0001ms, 0374ms total)
T1BF8 000:975 JLINK_IsHalted()  returns FALSE (0001ms, 0374ms total)
T1BF8 000:978 JLINK_IsHalted()  returns FALSE (0001ms, 0374ms total)
T1BF8 000:981 JLINK_IsHalted()  returns FALSE (0001ms, 0374ms total)
T1BF8 000:990 JLINK_IsHalted()  returns FALSE (0001ms, 0374ms total)
T1BF8 000:993 JLINK_IsHalted()  returns FALSE (0001ms, 0374ms total)
T1BF8 000:996 JLINK_IsHalted()  returns FALSE (0001ms, 0374ms total)
T1BF8 000:999 JLINK_IsHalted()  returns FALSE (0001ms, 0374ms total)
T1BF8 001:002 JLINK_IsHalted()  returns FALSE (0002ms, 0375ms total)
T1BF8 001:006 JLINK_IsHalted()  returns FALSE (0001ms, 0374ms total)
T1BF8 001:009 JLINK_IsHalted()  returns FALSE (0001ms, 0374ms total)
T1BF8 001:012 JLINK_IsHalted()  returns FALSE (0001ms, 0374ms total)
T1BF8 001:015 JLINK_IsHalted()  returns FALSE (0001ms, 0374ms total)
T1BF8 001:022 JLINK_IsHalted()  returns FALSE (0001ms, 0374ms total)
T1BF8 001:025 JLINK_IsHalted()  returns FALSE (0001ms, 0374ms total)
T1BF8 001:028 JLINK_IsHalted()  returns FALSE (0001ms, 0374ms total)
T1BF8 001:035 JLINK_IsHalted()  returns FALSE (0002ms, 0375ms total)
T1BF8 001:039 JLINK_IsHalted()  returns FALSE (0001ms, 0374ms total)
T1BF8 001:042 JLINK_IsHalted()  returns FALSE (0001ms, 0374ms total)
T1BF8 001:045 JLINK_IsHalted()  returns FALSE (0001ms, 0374ms total)
T1BF8 001:048 JLINK_IsHalted()  returns FALSE (0001ms, 0374ms total)
T1BF8 001:051 JLINK_IsHalted()  returns FALSE (0001ms, 0374ms total)
T1BF8 001:054 JLINK_IsHalted()  returns FALSE (0001ms, 0374ms total)
T1BF8 001:057 JLINK_IsHalted()  returns FALSE (0001ms, 0374ms total)
T1BF8 001:060 JLINK_IsHalted()  returns FALSE (0001ms, 0374ms total)
T1BF8 001:063 JLINK_IsHalted()  returns FALSE (0001ms, 0374ms total)
T1BF8 001:066 JLINK_IsHalted()  returns FALSE (0002ms, 0375ms total)
T1BF8 001:070 JLINK_IsHalted()  returns FALSE (0001ms, 0374ms total)
T1BF8 001:073 JLINK_IsHalted()  returns FALSE (0001ms, 0374ms total)
T1BF8 001:076 JLINK_IsHalted()  returns FALSE (0001ms, 0374ms total)
T1BF8 001:083 JLINK_IsHalted()  returns FALSE (0001ms, 0374ms total)
T1BF8 001:086 JLINK_IsHalted()  returns FALSE (0001ms, 0374ms total)
T1BF8 001:089 JLINK_IsHalted()  returns FALSE (0001ms, 0374ms total)
T1BF8 001:099 JLINK_IsHalted()  returns FALSE (0001ms, 0374ms total)
T1BF8 001:102 JLINK_IsHalted()  returns FALSE (0001ms, 0374ms total)
T1BF8 001:105 JLINK_IsHalted()  returns FALSE (0001ms, 0374ms total)
T1BF8 001:108 JLINK_IsHalted()  returns FALSE (0001ms, 0374ms total)
T1BF8 001:111 JLINK_IsHalted()  returns FALSE (0001ms, 0374ms total)
T1BF8 001:114 JLINK_IsHalted()  returns FALSE (0001ms, 0374ms total)
T1BF8 001:117 JLINK_IsHalted()  returns FALSE (0001ms, 0374ms total)
T1BF8 001:120 JLINK_IsHalted()  returns FALSE (0001ms, 0374ms total)
T1BF8 001:123 JLINK_IsHalted()  returns FALSE (0001ms, 0375ms total)
T1BF8 001:125 JLINK_IsHalted()  returns FALSE (0001ms, 0375ms total)
T1BF8 001:128 JLINK_IsHalted()  returns FALSE (0001ms, 0375ms total)
T1BF8 001:131 JLINK_IsHalted()  returns FALSE (0001ms, 0375ms total)
T1BF8 001:134 JLINK_IsHalted()  returns FALSE (0001ms, 0375ms total)
T1BF8 001:137 JLINK_IsHalted()  returns FALSE (0001ms, 0375ms total)
T1BF8 001:140 JLINK_IsHalted()  returns FALSE (0001ms, 0375ms total)
T1BF8 001:151 JLINK_IsHalted()  returns FALSE (0001ms, 0375ms total)
T1BF8 001:154 JLINK_IsHalted()  returns FALSE (0001ms, 0375ms total)
T1BF8 001:157 JLINK_IsHalted()  returns FALSE (0001ms, 0375ms total)
T1BF8 001:160 JLINK_IsHalted()  returns FALSE (0001ms, 0375ms total)
T1BF8 001:163 JLINK_IsHalted()  returns FALSE (0001ms, 0375ms total)
T1BF8 001:166 JLINK_IsHalted()  returns FALSE (0001ms, 0375ms total)
T1BF8 001:169 JLINK_IsHalted()  returns FALSE (0001ms, 0375ms total)
T1BF8 001:172 JLINK_IsHalted()  returns FALSE (0001ms, 0375ms total)
T1BF8 001:175 JLINK_IsHalted()  returns FALSE (0001ms, 0375ms total)
T1BF8 001:178 JLINK_IsHalted()  returns FALSE (0001ms, 0375ms total)
T1BF8 001:181 JLINK_IsHalted() -- CPU_ReadMem(2 bytes @ 0x20000000)  returns TRUE (0007ms, 0381ms total)
T1BF8 001:188 JLINK_ReadReg(R15 (PC))  returns 0x20000000 (0000ms, 0374ms total)
T1BF8 001:188 JLINK_ClrBPEx(BPHandle = 0x00000005)  returns 0x00 (0000ms, 0374ms total)
T1BF8 001:188 JLINK_ReadReg(R0)  returns 0x00000000 (0000ms, 0374ms total)
T1BF8 001:189 JLINK_WriteReg(R0, 0x00000001)  returns 0x00 (0000ms, 0374ms total)
T1BF8 001:189 JLINK_WriteReg(R1, 0x00004000)  returns 0x00 (0000ms, 0374ms total)
T1BF8 001:189 JLINK_WriteReg(R2, 0x000000FF)  returns 0x00 (0000ms, 0374ms total)
T1BF8 001:189 JLINK_WriteReg(R3, 0x00000000)  returns 0x00 (0000ms, 0374ms total)
T1BF8 001:189 JLINK_WriteReg(R4, 0x00000000)  returns 0x00 (0000ms, 0374ms total)
T1BF8 001:189 JLINK_WriteReg(R5, 0x00000000)  returns 0x00 (0000ms, 0374ms total)
T1BF8 001:189 JLINK_WriteReg(R6, 0x00000000)  returns 0x00 (0000ms, 0374ms total)
T1BF8 001:189 JLINK_WriteReg(R7, 0x00000000)  returns 0x00 (0000ms, 0374ms total)
T1BF8 001:189 JLINK_WriteReg(R8, 0x00000000)  returns 0x00 (0000ms, 0374ms total)
T1BF8 001:189 JLINK_WriteReg(R9, 0x2000017C)  returns 0x00 (0001ms, 0375ms total)
T1BF8 001:190 JLINK_WriteReg(R10, 0x00000000)  returns 0x00 (0000ms, 0375ms total)
T1BF8 001:190 JLINK_WriteReg(R11, 0x00000000)  returns 0x00 (0000ms, 0375ms total)
T1BF8 001:190 JLINK_WriteReg(R12, 0x00000000)  returns 0x00 (0000ms, 0375ms total)
T1BF8 001:190 JLINK_WriteReg(R13 (SP), 0x20001000)  returns 0x00 (0000ms, 0375ms total)
T1BF8 001:190 JLINK_WriteReg(R14, 0x20000001)  returns 0x00 (0000ms, 0375ms total)
T1BF8 001:190 JLINK_WriteReg(R15 (PC), 0x20000082)  returns 0x00 (0000ms, 0375ms total)
T1BF8 001:190 JLINK_WriteReg(XPSR, 0x01000000)  returns 0x00 (0000ms, 0375ms total)
T1BF8 001:190 JLINK_WriteReg(MSP, 0x20001000)  returns 0x00 (0000ms, 0375ms total)
T1BF8 001:190 JLINK_WriteReg(PSP, 0x20001000)  returns 0x00 (0000ms, 0375ms total)
T1BF8 001:190 JLINK_WriteReg(CFBP, 0x00000000)  returns 0x00 (0000ms, 0375ms total)
T1BF8 001:190 JLINK_SetBPEx(Addr = 0x20000000, Type = 0xFFFFFFF2)  returns 0x00000006 (0000ms, 0375ms total)
T1BF8 001:190 JLINK_Go() -- CPU_ReadMem(4 bytes @ 0xE0001000) (0005ms, 0380ms total)
T1BF8 001:195 JLINK_IsHalted() -- CPU_ReadMem(2 bytes @ 0x20000000)  returns TRUE (0007ms, 0387ms total)
T1BF8 001:202 JLINK_ReadReg(R15 (PC))  returns 0x20000000 (0000ms, 0380ms total)
T1BF8 001:202 JLINK_ClrBPEx(BPHandle = 0x00000006)  returns 0x00 (0000ms, 0380ms total)
T1BF8 001:202 JLINK_ReadReg(R0)  returns 0x00000000 (0001ms, 0381ms total)
T1BF8 001:271 JLINK_WriteMem(0x20000000, 0x0180 Bytes, ...) - Data: 00 BE 0A E0 0D 78 2D 06 68 40 08 24 40 00 00 D3 ... -- CPU_WriteMem(384 bytes @ 0x20000000)  returns 0x180 (0005ms, 0386ms total)
T1BF8 001:276 JLINK_WriteReg(R0, 0x08000000)  returns 0x00 (0000ms, 0386ms total)
T1BF8 001:276 JLINK_WriteReg(R1, 0x0A037A00)  returns 0x00 (0000ms, 0386ms total)
T1BF8 001:276 JLINK_WriteReg(R2, 0x00000002)  returns 0x00 (0000ms, 0386ms total)
T1BF8 001:276 JLINK_WriteReg(R3, 0x00000000)  returns 0x00 (0000ms, 0386ms total)
T1BF8 001:276 JLINK_WriteReg(R4, 0x00000000)  returns 0x00 (0000ms, 0386ms total)
T1BF8 001:276 JLINK_WriteReg(R5, 0x00000000)  returns 0x00 (0000ms, 0386ms total)
T1BF8 001:276 JLINK_WriteReg(R6, 0x00000000)  returns 0x00 (0000ms, 0386ms total)
T1BF8 001:276 JLINK_WriteReg(R7, 0x00000000)  returns 0x00 (0000ms, 0386ms total)
T1BF8 001:276 JLINK_WriteReg(R8, 0x00000000)  returns 0x00 (0000ms, 0386ms total)
T1BF8 001:276 JLINK_WriteReg(R9, 0x2000017C)  returns 0x00 (0000ms, 0386ms total)
T1BF8 001:276 JLINK_WriteReg(R10, 0x00000000)  returns 0x00 (0000ms, 0386ms total)
T1BF8 001:276 JLINK_WriteReg(R11, 0x00000000)  returns 0x00 (0000ms, 0386ms total)
T1BF8 001:276 JLINK_WriteReg(R12, 0x00000000)  returns 0x00 (0000ms, 0386ms total)
T1BF8 001:276 JLINK_WriteReg(R13 (SP), 0x20001000)  returns 0x00 (0001ms, 0387ms total)
T1BF8 001:277 JLINK_WriteReg(R14, 0x20000001)  returns 0x00 (0000ms, 0387ms total)
T1BF8 001:277 JLINK_WriteReg(R15 (PC), 0x20000054)  returns 0x00 (0000ms, 0387ms total)
T1BF8 001:277 JLINK_WriteReg(XPSR, 0x01000000)  returns 0x00 (0000ms, 0387ms total)
T1BF8 001:277 JLINK_WriteReg(MSP, 0x20001000)  returns 0x00 (0000ms, 0387ms total)
T1BF8 001:277 JLINK_WriteReg(PSP, 0x20001000)  returns 0x00 (0000ms, 0387ms total)
T1BF8 001:277 JLINK_WriteReg(CFBP, 0x00000000)  returns 0x00 (0000ms, 0387ms total)
T1BF8 001:277 JLINK_SetBPEx(Addr = 0x20000000, Type = 0xFFFFFFF2) -- CPU_ReadMem(2 bytes @ 0x20000000)  returns 0x00000007 (0001ms, 0388ms total)
T1BF8 001:278 JLINK_Go() -- CPU_WriteMem(2 bytes @ 0x20000000) -- CPU_ReadMem(4 bytes @ 0xE0001000) (0006ms, 0394ms total)
T1BF8 001:284 JLINK_IsHalted() -- CPU_ReadMem(2 bytes @ 0x20000000)  returns TRUE (0007ms, 0401ms total)
T1BF8 001:291 JLINK_ReadReg(R15 (PC))  returns 0x20000000 (0000ms, 0394ms total)
T1BF8 001:291 JLINK_ClrBPEx(BPHandle = 0x00000007)  returns 0x00 (0000ms, 0394ms total)
T1BF8 001:291 JLINK_ReadReg(R0)  returns 0x00000000 (0000ms, 0394ms total)
T1BF8 001:292 JLINK_WriteMem(0x20000180, 0x0400 Bytes, ...) - Data: 30 21 00 20 9D 01 00 08 D7 37 00 08 67 2D 00 08 ... -- CPU_WriteMem(1024 bytes @ 0x20000180)  returns 0x400 (0011ms, 0405ms total)
T1BF8 001:303 JLINK_WriteReg(R0, 0x08000000)  returns 0x00 (0000ms, 0405ms total)
T1BF8 001:303 JLINK_WriteReg(R1, 0x00000400)  returns 0x00 (0001ms, 0406ms total)
T1BF8 001:304 JLINK_WriteReg(R2, 0x20000180)  returns 0x00 (0000ms, 0406ms total)
T1BF8 001:304 JLINK_WriteReg(R3, 0x00000000)  returns 0x00 (0000ms, 0406ms total)
T1BF8 001:304 JLINK_WriteReg(R4, 0x00000000)  returns 0x00 (0000ms, 0406ms total)
T1BF8 001:304 JLINK_WriteReg(R5, 0x00000000)  returns 0x00 (0000ms, 0406ms total)
T1BF8 001:304 JLINK_WriteReg(R6, 0x00000000)  returns 0x00 (0000ms, 0406ms total)
T1BF8 001:304 JLINK_WriteReg(R7, 0x00000000)  returns 0x00 (0000ms, 0406ms total)
T1BF8 001:304 JLINK_WriteReg(R8, 0x00000000)  returns 0x00 (0000ms, 0406ms total)
T1BF8 001:304 JLINK_WriteReg(R9, 0x2000017C)  returns 0x00 (0000ms, 0406ms total)
T1BF8 001:304 JLINK_WriteReg(R10, 0x00000000)  returns 0x00 (0000ms, 0406ms total)
T1BF8 001:304 JLINK_WriteReg(R11, 0x00000000)  returns 0x00 (0000ms, 0406ms total)
T1BF8 001:304 JLINK_WriteReg(R12, 0x00000000)  returns 0x00 (0000ms, 0406ms total)
T1BF8 001:304 JLINK_WriteReg(R13 (SP), 0x20001000)  returns 0x00 (0000ms, 0406ms total)
T1BF8 001:304 JLINK_WriteReg(R14, 0x20000001)  returns 0x00 (0000ms, 0406ms total)
T1BF8 001:304 JLINK_WriteReg(R15 (PC), 0x20000108)  returns 0x00 (0000ms, 0406ms total)
T1BF8 001:304 JLINK_WriteReg(XPSR, 0x01000000)  returns 0x00 (0000ms, 0406ms total)
T1BF8 001:304 JLINK_WriteReg(MSP, 0x20001000)  returns 0x00 (0000ms, 0406ms total)
T1BF8 001:304 JLINK_WriteReg(PSP, 0x20001000)  returns 0x00 (0000ms, 0406ms total)
T1BF8 001:304 JLINK_WriteReg(CFBP, 0x00000000)  returns 0x00 (0000ms, 0406ms total)
T1BF8 001:304 JLINK_SetBPEx(Addr = 0x20000000, Type = 0xFFFFFFF2)  returns 0x00000008 (0000ms, 0406ms total)
T1BF8 001:304 JLINK_Go() -- CPU_ReadMem(4 bytes @ 0xE0001000) (0005ms, 0411ms total)
T1BF8 001:309 JLINK_IsHalted()  returns FALSE (0002ms, 0413ms total)
T1BF8 001:344 JLINK_IsHalted() -- CPU_ReadMem(2 bytes @ 0x20000000)  returns TRUE (0007ms, 0418ms total)
T1BF8 001:351 JLINK_ReadReg(R15 (PC))  returns 0x20000000 (0000ms, 0411ms total)
T1BF8 001:351 JLINK_ClrBPEx(BPHandle = 0x00000008)  returns 0x00 (0000ms, 0411ms total)
T1BF8 001:351 JLINK_ReadReg(R0)  returns 0x00000000 (0000ms, 0411ms total)
T1BF8 001:351 JLINK_WriteMem(0x20000180, 0x0400 Bytes, ...) - Data: 41 F4 80 11 C3 F3 13 03 43 F4 80 13 01 FB 02 44 ... -- CPU_WriteMem(1024 bytes @ 0x20000180)  returns 0x400 (0011ms, 0422ms total)
T1BF8 001:362 JLINK_WriteReg(R0, 0x08000400)  returns 0x00 (0000ms, 0422ms total)
T1BF8 001:362 JLINK_WriteReg(R1, 0x00000400)  returns 0x00 (0000ms, 0422ms total)
T1BF8 001:362 JLINK_WriteReg(R2, 0x20000180)  returns 0x00 (0000ms, 0422ms total)
T1BF8 001:362 JLINK_WriteReg(R3, 0x00000000)  returns 0x00 (0000ms, 0422ms total)
T1BF8 001:362 JLINK_WriteReg(R4, 0x00000000)  returns 0x00 (0000ms, 0422ms total)
T1BF8 001:362 JLINK_WriteReg(R5, 0x00000000)  returns 0x00 (0000ms, 0422ms total)
T1BF8 001:362 JLINK_WriteReg(R6, 0x00000000)  returns 0x00 (0000ms, 0422ms total)
T1BF8 001:362 JLINK_WriteReg(R7, 0x00000000)  returns 0x00 (0000ms, 0422ms total)
T1BF8 001:362 JLINK_WriteReg(R8, 0x00000000)  returns 0x00 (0000ms, 0422ms total)
T1BF8 001:362 JLINK_WriteReg(R9, 0x2000017C)  returns 0x00 (0000ms, 0422ms total)
T1BF8 001:362 JLINK_WriteReg(R10, 0x00000000)  returns 0x00 (0000ms, 0422ms total)
T1BF8 001:362 JLINK_WriteReg(R11, 0x00000000)  returns 0x00 (0000ms, 0422ms total)
T1BF8 001:362 JLINK_WriteReg(R12, 0x00000000)  returns 0x00 (0000ms, 0422ms total)
T1BF8 001:362 JLINK_WriteReg(R13 (SP), 0x20001000)  returns 0x00 (0000ms, 0422ms total)
T1BF8 001:362 JLINK_WriteReg(R14, 0x20000001)  returns 0x00 (0000ms, 0422ms total)
T1BF8 001:362 JLINK_WriteReg(R15 (PC), 0x20000108)  returns 0x00 (0000ms, 0422ms total)
T1BF8 001:362 JLINK_WriteReg(XPSR, 0x01000000)  returns 0x00 (0000ms, 0422ms total)
T1BF8 001:362 JLINK_WriteReg(MSP, 0x20001000)  returns 0x00 (0000ms, 0422ms total)
T1BF8 001:362 JLINK_WriteReg(PSP, 0x20001000)  returns 0x00 (0000ms, 0422ms total)
T1BF8 001:362 JLINK_WriteReg(CFBP, 0x00000000)  returns 0x00 (0000ms, 0422ms total)
T1BF8 001:362 JLINK_SetBPEx(Addr = 0x20000000, Type = 0xFFFFFFF2)  returns 0x00000009 (0000ms, 0422ms total)
T1BF8 001:362 JLINK_Go() -- CPU_ReadMem(4 bytes @ 0xE0001000) (0005ms, 0427ms total)
T1BF8 001:367 JLINK_IsHalted()  returns FALSE (0001ms, 0428ms total)
T1BF8 001:372 JLINK_IsHalted() -- CPU_ReadMem(2 bytes @ 0x20000000)  returns TRUE (0007ms, 0434ms total)
T1BF8 001:379 JLINK_ReadReg(R15 (PC))  returns 0x20000000 (0000ms, 0427ms total)
T1BF8 001:379 JLINK_ClrBPEx(BPHandle = 0x00000009)  returns 0x00 (0000ms, 0427ms total)
T1BF8 001:379 JLINK_ReadReg(R0)  returns 0x00000000 (0000ms, 0427ms total)
T1BF8 001:380 JLINK_WriteMem(0x20000180, 0x0400 Bytes, ...) - Data: 8A 60 81 6A 6F F0 70 62 D1 42 01 68 8A 68 22 F0 ... -- CPU_WriteMem(1024 bytes @ 0x20000180)  returns 0x400 (0011ms, 0438ms total)
T1BF8 001:391 JLINK_WriteReg(R0, 0x08000800)  returns 0x00 (0000ms, 0438ms total)
T1BF8 001:391 JLINK_WriteReg(R1, 0x00000400)  returns 0x00 (0000ms, 0438ms total)
T1BF8 001:391 JLINK_WriteReg(R2, 0x20000180)  returns 0x00 (0000ms, 0438ms total)
T1BF8 001:391 JLINK_WriteReg(R3, 0x00000000)  returns 0x00 (0000ms, 0438ms total)
T1BF8 001:391 JLINK_WriteReg(R4, 0x00000000)  returns 0x00 (0000ms, 0438ms total)
T1BF8 001:391 JLINK_WriteReg(R5, 0x00000000)  returns 0x00 (0000ms, 0438ms total)
T1BF8 001:391 JLINK_WriteReg(R6, 0x00000000)  returns 0x00 (0000ms, 0438ms total)
T1BF8 001:391 JLINK_WriteReg(R7, 0x00000000)  returns 0x00 (0000ms, 0438ms total)
T1BF8 001:391 JLINK_WriteReg(R8, 0x00000000)  returns 0x00 (0000ms, 0438ms total)
T1BF8 001:391 JLINK_WriteReg(R9, 0x2000017C)  returns 0x00 (0000ms, 0438ms total)
T1BF8 001:391 JLINK_WriteReg(R10, 0x00000000)  returns 0x00 (0000ms, 0438ms total)
T1BF8 001:391 JLINK_WriteReg(R11, 0x00000000)  returns 0x00 (0000ms, 0438ms total)
T1BF8 001:391 JLINK_WriteReg(R12, 0x00000000)  returns 0x00 (0000ms, 0438ms total)
T1BF8 001:391 JLINK_WriteReg(R13 (SP), 0x20001000)  returns 0x00 (0000ms, 0438ms total)
T1BF8 001:391 JLINK_WriteReg(R14, 0x20000001)  returns 0x00 (0000ms, 0438ms total)
T1BF8 001:391 JLINK_WriteReg(R15 (PC), 0x20000108)  returns 0x00 (0000ms, 0438ms total)
T1BF8 001:391 JLINK_WriteReg(XPSR, 0x01000000)  returns 0x00 (0000ms, 0438ms total)
T1BF8 001:391 JLINK_WriteReg(MSP, 0x20001000)  returns 0x00 (0000ms, 0438ms total)
T1BF8 001:391 JLINK_WriteReg(PSP, 0x20001000)  returns 0x00 (0000ms, 0438ms total)
T1BF8 001:391 JLINK_WriteReg(CFBP, 0x00000000)  returns 0x00 (0000ms, 0438ms total)
T1BF8 001:391 JLINK_SetBPEx(Addr = 0x20000000, Type = 0xFFFFFFF2)  returns 0x0000000A (0000ms, 0438ms total)
T1BF8 001:391 JLINK_Go() -- CPU_ReadMem(4 bytes @ 0xE0001000) (0004ms, 0442ms total)
T1BF8 001:395 JLINK_IsHalted()  returns FALSE (0001ms, 0443ms total)
T1BF8 001:400 JLINK_IsHalted() -- CPU_ReadMem(2 bytes @ 0x20000000)  returns TRUE (0007ms, 0449ms total)
T1BF8 001:407 JLINK_ReadReg(R15 (PC))  returns 0x20000000 (0000ms, 0442ms total)
T1BF8 001:407 JLINK_ClrBPEx(BPHandle = 0x0000000A)  returns 0x00 (0000ms, 0442ms total)
T1BF8 001:407 JLINK_ReadReg(R0)  returns 0x00000000 (0000ms, 0442ms total)
T1BF8 001:407 JLINK_WriteMem(0x20000180, 0x0400 Bytes, ...) - Data: 00 03 C2 F8 04 33 09 68 10 29 0C D1 09 49 0A 4A ... -- CPU_WriteMem(1024 bytes @ 0x20000180)  returns 0x400 (0011ms, 0453ms total)
T1BF8 001:418 JLINK_WriteReg(R0, 0x08000C00)  returns 0x00 (0000ms, 0453ms total)
T1BF8 001:418 JLINK_WriteReg(R1, 0x00000400)  returns 0x00 (0000ms, 0453ms total)
T1BF8 001:418 JLINK_WriteReg(R2, 0x20000180)  returns 0x00 (0000ms, 0453ms total)
T1BF8 001:418 JLINK_WriteReg(R3, 0x00000000)  returns 0x00 (0000ms, 0453ms total)
T1BF8 001:418 JLINK_WriteReg(R4, 0x00000000)  returns 0x00 (0000ms, 0453ms total)
T1BF8 001:418 JLINK_WriteReg(R5, 0x00000000)  returns 0x00 (0000ms, 0453ms total)
T1BF8 001:418 JLINK_WriteReg(R6, 0x00000000)  returns 0x00 (0000ms, 0453ms total)
T1BF8 001:418 JLINK_WriteReg(R7, 0x00000000)  returns 0x00 (0000ms, 0453ms total)
T1BF8 001:418 JLINK_WriteReg(R8, 0x00000000)  returns 0x00 (0000ms, 0453ms total)
T1BF8 001:418 JLINK_WriteReg(R9, 0x2000017C)  returns 0x00 (0000ms, 0453ms total)
T1BF8 001:418 JLINK_WriteReg(R10, 0x00000000)  returns 0x00 (0000ms, 0453ms total)
T1BF8 001:418 JLINK_WriteReg(R11, 0x00000000)  returns 0x00 (0000ms, 0453ms total)
T1BF8 001:418 JLINK_WriteReg(R12, 0x00000000)  returns 0x00 (0001ms, 0454ms total)
T1BF8 001:419 JLINK_WriteReg(R13 (SP), 0x20001000)  returns 0x00 (0000ms, 0454ms total)
T1BF8 001:419 JLINK_WriteReg(R14, 0x20000001)  returns 0x00 (0000ms, 0454ms total)
T1BF8 001:419 JLINK_WriteReg(R15 (PC), 0x20000108)  returns 0x00 (0000ms, 0454ms total)
T1BF8 001:419 JLINK_WriteReg(XPSR, 0x01000000)  returns 0x00 (0000ms, 0454ms total)
T1BF8 001:419 JLINK_WriteReg(MSP, 0x20001000)  returns 0x00 (0000ms, 0454ms total)
T1BF8 001:419 JLINK_WriteReg(PSP, 0x20001000)  returns 0x00 (0000ms, 0454ms total)
T1BF8 001:419 JLINK_WriteReg(CFBP, 0x00000000)  returns 0x00 (0000ms, 0454ms total)
T1BF8 001:419 JLINK_SetBPEx(Addr = 0x20000000, Type = 0xFFFFFFF2)  returns 0x0000000B (0000ms, 0454ms total)
T1BF8 001:419 JLINK_Go() -- CPU_ReadMem(4 bytes @ 0xE0001000) (0004ms, 0458ms total)
T1BF8 001:423 JLINK_IsHalted()  returns FALSE (0001ms, 0459ms total)
T1BF8 001:431 JLINK_IsHalted() -- CPU_ReadMem(2 bytes @ 0x20000000)  returns TRUE (0007ms, 0465ms total)
T1BF8 001:438 JLINK_ReadReg(R15 (PC))  returns 0x20000000 (0000ms, 0458ms total)
T1BF8 001:438 JLINK_ClrBPEx(BPHandle = 0x0000000B)  returns 0x00 (0000ms, 0458ms total)
T1BF8 001:438 JLINK_ReadReg(R0)  returns 0x00000000 (0000ms, 0458ms total)
T1BF8 001:438 JLINK_WriteMem(0x20000180, 0x0400 Bytes, ...) - Data: 21 F0 08 01 01 60 94 F8 5C 10 3F 20 88 40 A8 60 ... -- CPU_WriteMem(1024 bytes @ 0x20000180)  returns 0x400 (0011ms, 0469ms total)
T1BF8 001:449 JLINK_WriteReg(R0, 0x08001000)  returns 0x00 (0000ms, 0469ms total)
T1BF8 001:449 JLINK_WriteReg(R1, 0x00000400)  returns 0x00 (0000ms, 0469ms total)
T1BF8 001:449 JLINK_WriteReg(R2, 0x20000180)  returns 0x00 (0000ms, 0469ms total)
T1BF8 001:449 JLINK_WriteReg(R3, 0x00000000)  returns 0x00 (0000ms, 0469ms total)
T1BF8 001:449 JLINK_WriteReg(R4, 0x00000000)  returns 0x00 (0000ms, 0469ms total)
T1BF8 001:449 JLINK_WriteReg(R5, 0x00000000)  returns 0x00 (0000ms, 0469ms total)
